
T1E64 000:001 SEGGER J-Link V6.16c Log File (0000ms, 0001ms total)
T1E64 000:001 DLL Compiled: Jun 16 2017 18:14:49 (0000ms, 0001ms total)
T1E64 000:001 Logging started @ 2017-11-01 16:13 (0000ms, 0001ms total)
T1E64 000:001 JLINK_SetWarnOutHandler(...) (0000ms, 0001ms total)
T1E64 000:001 JLINK_OpenEx(...)
Firmware: J-Link V10 compiled Sep  8 2017 17:24:33
Hardware: V10.10
S/N: 260102658
OEM: SEGGER-EDU
Feature(s): FlashBP, GDBWEBSRV Webserver running on local port 19080 (0007ms, 0008ms total)
T1E64 000:001   returns O.K. (0007ms, 0008ms total)
T1E64 000:008 JLINK_GetEmuCaps()  returns 0xB9FF7BBF (0000ms, 0008ms total)
T1E64 000:008 JLINK_TIF_GetAvailable(...) (0000ms, 0008ms total)
T1E64 000:008 JLINK_SetErrorOutHandler(...) (0000ms, 0008ms total)
T1E64 000:008 JLINK_ExecCommand("ProjectFile = "C:\Users\kenbo\Documents\github\steppers\MDK-ARM\JLinkSettings.ini"", ...).   returns 0x00 (0062ms, 0070ms total)
T1E64 000:070 JLINK_ExecCommand("Device = STM32F746IGTx", ...). Device "STM32F746IG" selected.  returns 0x00 (0001ms, 0071ms total)
T1E64 000:071 JLINK_ExecCommand("DisableConnectionTimeout", ...).   returns 0x01 (0000ms, 0071ms total)
T1E64 000:071 JLINK_GetHardwareVersion()  returns 0x18A88 (0000ms, 0071ms total)
T1E64 000:071 JLINK_GetDLLVersion()  returns 61603 (0000ms, 0071ms total)
T1E64 000:071 JLINK_GetDLLVersion()  returns 61603 (0000ms, 0071ms total)
T1E64 000:071 JLINK_GetCompileDateTime() (0000ms, 0071ms total)
T1E64 000:071 JLINK_GetFirmwareString(...) (0000ms, 0071ms total)
T1E64 000:071 JLINK_GetHardwareVersion()  returns 0x18A88 (0000ms, 0071ms total)
T1E64 000:071 JLINK_TIF_Select(JLINKARM_TIF_JTAG)  returns 0x00 (0001ms, 0072ms total)
T1E64 000:072 JLINK_SetSpeed(5000) (0000ms, 0072ms total)
T1E64 000:072 JLINK_GetIdData(...) >0x2F8 JTAG>TotalIRLen = 9, IRPrint = 0x0011 >0x30 JTAG> >0x50 JTAG>JTAG chain detection found 2 devices: #0 Id: 0x5BA00477, IRLen: 04, CoreSight JTAG-DP #1 Id: 0x06449041, IRLen: 05, Unknown device >0x40 JTAG> >0x40 JTAG> >0x40 JTAG> >0x30 JTAG> >0x40 JTAG> >0x40 JTAG> >0x40 JTAG> >0x40 JTAG> >0x40 JTAG> >0x40 JTAG> >0x40 JTAG> >0x40 JTAG> >0x40 JTAG> >0x40 JTAG> >0x40 JTAG> >0x40 JTAG> >0x40 JTAG> >0x40 JTAG> >0x40 JTAG> >0x40 JTAG> >0x40 JTAG> >0x40 JTAG> >0x40 JTAG>
 >0x40 JTAG> >0x2F8 JTAG>TotalIRLen = 9, IRPrint = 0x0011 >0x30 JTAG> >0x50 JTAG>JTAG chain detection found 2 devices: #0 Id: 0x5BA00477, IRLen: 04, CoreSight JTAG-DP #1 Id: 0x06449041, IRLen: 05, Unknown deviceScanning APs, stopping at first AHB-AP found. >0x80 JTAG> >0x50 JTAG> >0x50 JTAG>AP[0] IDR: 0x74770001 (AHB-AP) >0x40 JTAG> >0x50 JTAG> >0x50 JTAG>AHB-AP ROM: 0xE00FD000 (Base addr. of first ROM table) >0x80 JTAG> >0x40 JTAG> >0x30 JTAG> >0x40 JTAG> >0x40 JTAG> >0x30 JTAG> >0x40 JTAG> >0x50 JTAG>
CPUID reg.: 0x410FC271. Implementer code: 0x41 (ARM)Found Cortex-M7 r0p1, Little endian. -- CPU_ReadMem(4 bytes @ 0xE000EDF0) -- CPU_WriteMem(4 bytes @ 0xE000EDF0) -- CPU_ReadMem(4 bytes @ 0xE0002000)FPUnit: 8 code (BP) slots and 0 literal slots -- CPU_ReadMem(4 bytes @ 0xE000EDFC) -- CPU_WriteMem(4 bytes @ 0xE000EDFC) -- CPU_ReadMem(4 bytes @ 0xE0001000) -- CPU_WriteMem(4 bytes @ 0xE0001000) -- CPU_ReadMem(4 bytes @ 0xE000ED88) -- CPU_WriteMem(4 bytes @ 0xE000ED88) -- CPU_ReadMem(4 bytes @ 0xE000ED88)
 -- CPU_WriteMem(4 bytes @ 0xE000ED88)CoreSight components:ROMTbl[0] @ E00FD000 -- CPU_ReadMem(16 bytes @ 0xE00FD000) -- CPU_ReadMem(16 bytes @ 0xE00FEFF0) -- CPU_ReadMem(16 bytes @ 0xE00FEFE0)ROMTbl[0][0]: E00FE000, CID: B105100D, PID: 000BB4C8 ROM TableROMTbl[1] @ E00FE000 -- CPU_ReadMem(16 bytes @ 0xE00FE000) -- CPU_ReadMem(16 bytes @ 0xE00FFFF0) -- CPU_ReadMem(16 bytes @ 0xE00FFFE0)ROMTbl[1][0]: E00FF000, CID: B105100D, PID: 000BB4C7 ROM TableROMTbl[2] @ E00FF000 -- CPU_ReadMem(16 bytes @ 0xE00FF000)
 -- CPU_ReadMem(16 bytes @ 0xE000EFF0) -- CPU_ReadMem(16 bytes @ 0xE000EFE0)ROMTbl[2][0]: E000E000, CID: B105E00D, PID: 000BB00C SCS -- CPU_ReadMem(16 bytes @ 0xE0001FF0) -- CPU_ReadMem(16 bytes @ 0xE0001FE0)ROMTbl[2][1]: E0001000, CID: B105E00D, PID: 000BB002 DWT -- CPU_ReadMem(16 bytes @ 0xE0002FF0) -- CPU_ReadMem(16 bytes @ 0xE0002FE0)ROMTbl[2][2]: E0002000, CID: B105E00D, PID: 000BB00E FPB -- CPU_ReadMem(16 bytes @ 0xE0000FF0) -- CPU_ReadMem(16 bytes @ 0xE0000FE0)
ROMTbl[2][3]: E0000000, CID: B105E00D, PID: 000BB001 ITM -- CPU_ReadMem(16 bytes @ 0xE00FF010) -- CPU_ReadMem(16 bytes @ 0xE0041FF0) -- CPU_ReadMem(16 bytes @ 0xE0041FE0)ROMTbl[1][1]: E0041000, CID: B105900D, PID: 000BB975 ETM-M7 -- CPU_ReadMem(16 bytes @ 0xE00FE010) -- CPU_ReadMem(16 bytes @ 0xE0040FF0) -- CPU_ReadMem(16 bytes @ 0xE0040FE0)ROMTbl[0][1]: E0040000, CID: B105900D, PID: 000BB9A9 TPIU-M7 -- CPU_ReadMem(16 bytes @ 0xE00FD010) -- CPU_ReadMem(4 bytes @ 0xE000ED78)Cache: Separate I- and D-cache.
 (0023ms, 0095ms total)
T1E64 000:072  -- CPU_WriteMem(4 bytes @ 0xE000ED84) -- CPU_ReadMem(4 bytes @ 0xE000ED80)I-Cache L1: 4 KB, 64 Sets, 32 Bytes/Line, 2-Way -- CPU_WriteMem(4 bytes @ 0xE000ED84) -- CPU_ReadMem(4 bytes @ 0xE000ED80)D-Cache L1: 4 KB, 32 Sets, 32 Bytes/Line, 4-Way ScanLen=9 NumDevices=2 aId[0]=0x5BA00477 aIrRead[0]=0 aScanLen[0]=0 aScanRead[0]=0 (0024ms, 0096ms total)
T1E64 000:096 JLINK_JTAG_GetDeviceID(DeviceIndex = 0)  returns 0x5BA00477 (0000ms, 0096ms total)
T1E64 000:096 JLINK_JTAG_GetDeviceInfo(DeviceIndex = 0)  returns 0x00 (0000ms, 0096ms total)
T1E64 000:096 JLINK_JTAG_GetDeviceID(DeviceIndex = 1)  returns 0x6449041 (0000ms, 0096ms total)
T1E64 000:096 JLINK_JTAG_GetDeviceInfo(DeviceIndex = 1)  returns 0x01 (0000ms, 0096ms total)
T1E64 000:096 JLINK_GetDLLVersion()  returns 61603 (0000ms, 0096ms total)
T1E64 000:096 JLINK_CORE_GetFound()  returns 0xE0100FF (0000ms, 0096ms total)
T1E64 000:096 JLINK_GetDebugInfo(0x100 = JLINKARM_ROM_TABLE_ADDR_INDEX) -- Value=0xE00FD000  returns 0x00 (0000ms, 0096ms total)
T1E64 000:096 JLINK_GetDebugInfo(0x100 = JLINKARM_ROM_TABLE_ADDR_INDEX) -- Value=0xE00FD000  returns 0x00 (0000ms, 0096ms total)
T1E64 000:096 JLINK_GetDebugInfo(0x101 = JLINKARM_DEBUG_INFO_ETM_ADDR_INDEX) -- Value=0xE0041000  returns 0x00 (0000ms, 0096ms total)
T1E64 000:096 JLINK_ReadMemEx(0xE0041FD0, 0x0020 Bytes, ..., Flags = 0x02000004) -- CPU_ReadMem(32 bytes @ 0xE0041FD0) - Data: 04 00 00 00 00 00 00 00 00 00 00 00 00 00 00 00 ...  returns 0x20 (0000ms, 0096ms total)
T1E64 000:096 JLINK_GetDebugInfo(0x102 = JLINKARM_DEBUG_INFO_MTB_ADDR_INDEX) -- Value=0x00000000  returns 0x00 (0000ms, 0096ms total)
T1E64 000:096 JLINK_GetDebugInfo(0x103 = JLINKARM_DEBUG_INFO_TPIU_ADDR_INDEX) -- Value=0xE0040000  returns 0x00 (0000ms, 0096ms total)
T1E64 000:096 JLINK_GetDebugInfo(0x104 = JLINKARM_DEBUG_INFO_ITM_ADDR_INDEX) -- Value=0xE0000000  returns 0x00 (0000ms, 0096ms total)
T1E64 000:096 JLINK_GetDebugInfo(0x105 = JLINKARM_DEBUG_INFO_DWT_ADDR_INDEX) -- Value=0xE0001000  returns 0x00 (0000ms, 0096ms total)
T1E64 000:096 JLINK_GetDebugInfo(0x106 = JLINKARM_DEBUG_INFO_FPB_ADDR_INDEX) -- Value=0xE0002000  returns 0x00 (0000ms, 0096ms total)
T1E64 000:096 JLINK_GetDebugInfo(0x107 = JLINKARM_DEBUG_INFO_NVIC_ADDR_INDEX) -- Value=0xE000E000  returns 0x00 (0000ms, 0096ms total)
T1E64 000:096 JLINK_GetDebugInfo(0x10C = JLINKARM_DEBUG_INFO_DBG_ADDR_INDEX) -- Value=0xE000EDF0  returns 0x00 (0000ms, 0096ms total)
T1E64 000:096 JLINK_ReadMemU32(0xE000ED00, 0x0001 Items, ...) -- CPU_ReadMem(4 bytes @ 0xE000ED00) - Data: 71 C2 0F 41  returns 0x01 (0001ms, 0097ms total)
T1E64 000:097 JLINK_GetDebugInfo(0x10F = JLINKARM_DEBUG_INFO_HAS_CORTEX_M_SECURITY_EXT_INDEX) -- Value=0x00000000  returns 0x00 (0000ms, 0097ms total)
T1E64 000:097 JLINK_SetResetType(JLINKARM_CM3_RESET_TYPE_NORMAL)  returns JLINKARM_CM3_RESET_TYPE_NORMAL (0000ms, 0097ms total)
T1E64 000:097 JLINK_Reset() -- CPU is running -- CPU_WriteMem(4 bytes @ 0xE000EDF0) -- CPU is running -- CPU_WriteMem(4 bytes @ 0xE000EDFC)Setting AIRCR.SYSRESETREQ -- CPU is running -- CPU_WriteMem(4 bytes @ 0xE000ED0C) -- CPU_ReadMem(4 bytes @ 0xE000ED0C) -- CPU_ReadMem(4 bytes @ 0xE000EDF0) -- CPU_ReadMem(4 bytes @ 0xE000EDF0) -- CPU_ReadMem(4 bytes @ 0xE000EDF0) -- CPU is running -- CPU_WriteMem(4 bytes @ 0xE000EDF0) -- CPU is running -- CPU_WriteMem(4 bytes @ 0xE000EDFC)
 -- CPU_ReadMem(4 bytes @ 0xE000EDF0) >0x80 JTAG> >0x40 JTAG> >0x30 JTAG> >0x40 JTAG> >0x50 JTAG> >0x40 JTAG> -- CPU_WriteMem(4 bytes @ 0xE000EDFC) -- CPU_WriteMem(4 bytes @ 0xE0001028) -- CPU_WriteMem(4 bytes @ 0xE0001038) -- CPU_WriteMem(4 bytes @ 0xE0001048) -- CPU_WriteMem(4 bytes @ 0xE0001058) -- CPU_WriteMem(4 bytes @ 0xE0002000) -- CPU_ReadMem(4 bytes @ 0xE000EDFC) -- CPU_ReadMem(4 bytes @ 0xE0001000) (0070ms, 0167ms total)
T1E64 000:167 JLINK_ReadReg(R15 (PC))  returns 0x080001DC (0000ms, 0167ms total)
T1E64 000:167 JLINK_ReadReg(XPSR)  returns 0x01000000 (0000ms, 0167ms total)
T1E64 000:167 JLINK_Halt()  returns 0x00 (0000ms, 0167ms total)
T1E64 000:167 JLINK_ReadMemU32(0xE000EDF0, 0x0001 Items, ...) -- CPU_ReadMem(4 bytes @ 0xE000EDF0) - Data: 03 00 03 00  returns 0x01 (0000ms, 0167ms total)
T1E64 000:167 JLINK_WriteU32(0xE000EDF0, 0xA05F0003) -- CPU_WriteMem(4 bytes @ 0xE000EDF0)  returns 0x00 (0000ms, 0167ms total)
T1E64 000:167 JLINK_WriteU32(0xE000EDFC, 0x01000000) -- CPU_WriteMem(4 bytes @ 0xE000EDFC)  returns 0x00 (0001ms, 0168ms total)
T1E64 000:168 JLINK_GetHWStatus(...)  returns 0x00 (0000ms, 0168ms total)
T1E64 000:168 JLINK_GetNumBPUnits(Type = 0xFFFFFF00)  returns 0x08 (0000ms, 0168ms total)
T1E64 000:168 JLINK_GetNumBPUnits(Type = 0xF0)  returns 0x2000 (0000ms, 0168ms total)
T1E64 000:168 JLINK_GetNumWPUnits()  returns 0x04 (0000ms, 0168ms total)
T1E64 000:168 JLINK_GetSpeed()  returns 0x1388 (0000ms, 0168ms total)
T1E64 000:168 JLINK_ReadMemU32(0xE000E004, 0x0001 Items, ...) -- CPU_ReadMem(4 bytes @ 0xE000E004) - Data: 03 00 00 00  returns 0x01 (0000ms, 0168ms total)
T1E64 000:168 JLINK_ReadMemU32(0xE000E004, 0x0001 Items, ...) -- CPU_ReadMem(4 bytes @ 0xE000E004) - Data: 03 00 00 00  returns 0x01 (0000ms, 0168ms total)
T1E64 000:168 JLINK_WriteMemEx(0xE0001000, 0x001C Bytes, ..., Flags = 0x02000004) - Data: 01 00 00 00 00 00 00 00 00 00 00 00 00 00 00 00 ... -- CPU_WriteMem(28 bytes @ 0xE0001000)  returns 0x1C (0001ms, 0169ms total)
T1E64 000:169 JLINK_ReadReg(R15 (PC))  returns 0x080001DC (0000ms, 0169ms total)
T1E64 000:169 JLINK_ReadReg(XPSR)  returns 0x01000000 (0000ms, 0169ms total)
T1E64 000:256 JLINK_SetResetType(JLINKARM_CM3_RESET_TYPE_NORMAL)  returns JLINKARM_CM3_RESET_TYPE_NORMAL (0000ms, 0169ms total)
T1E64 000:256 JLINK_Reset() -- CPU_WriteMem(4 bytes @ 0xE000EDF0) -- CPU_WriteMem(4 bytes @ 0xE000EDFC)Setting AIRCR.SYSRESETREQ -- CPU_WriteMem(4 bytes @ 0xE000ED0C) -- CPU_ReadMem(4 bytes @ 0xE000ED0C) -- CPU_ReadMem(4 bytes @ 0xE000EDF0) -- CPU_ReadMem(4 bytes @ 0xE000EDF0) -- CPU_ReadMem(4 bytes @ 0xE000EDF0) -- CPU_WriteMem(4 bytes @ 0xE000EDF0) -- CPU_WriteMem(4 bytes @ 0xE000EDFC) -- CPU_ReadMem(4 bytes @ 0xE000EDF0) >0x80 JTAG> >0x40 JTAG> >0x30 JTAG> >0x40 JTAG> >0x50 JTAG> >0x40 JTAG>
 -- CPU_WriteMem(4 bytes @ 0xE000EDFC) -- CPU_WriteMem(4 bytes @ 0xE0001028) -- CPU_WriteMem(4 bytes @ 0xE0001038) -- CPU_WriteMem(4 bytes @ 0xE0001048) -- CPU_WriteMem(4 bytes @ 0xE0001058) -- CPU_WriteMem(4 bytes @ 0xE0002000) -- CPU_ReadMem(4 bytes @ 0xE000EDFC) -- CPU_ReadMem(4 bytes @ 0xE0001000) (0071ms, 0240ms total)
T1E64 000:327 JLINK_ReadReg(R15 (PC))  returns 0x080001DC (0000ms, 0240ms total)
T1E64 000:327 JLINK_ReadReg(XPSR)  returns 0x01000000 (0000ms, 0240ms total)
T1E64 000:327 JLINK_ReadMemEx(0x080001C8, 0x003C Bytes, ..., Flags = 0x02000000) -- CPU_ReadMem(128 bytes @ 0x080001C0) -- Updating C cache (128 bytes @ 0x080001C0) -- Read from C cache (60 bytes @ 0x080001C8) - Data: DF F8 0C D0 00 F0 2A F8 00 48 00 47 2D 1A 00 08 ...  returns 0x3C (0001ms, 0241ms total)
T2BD4 000:868 JLINK_ReadMemEx(0x080001DC, 0x0002 Bytes, ..., Flags = 0x02000000) -- Read from C cache (2 bytes @ 0x080001DC) - Data: 06 48  returns 0x02 (0000ms, 0241ms total)
T2BD4 000:868 JLINK_SetBPEx(Addr = 0x08001A2C, Type = 0xFFFFFFF2)  returns 0x00000001 (0000ms, 0241ms total)
T2BD4 000:868 JLINK_Go() -- CPU_ReadMem(4 bytes @ 0xE0001000) -- CPU_WriteMem(4 bytes @ 0xE0002008) -- CPU_WriteMem(4 bytes @ 0xE000200C) -- CPU_WriteMem(4 bytes @ 0xE0002010) -- CPU_WriteMem(4 bytes @ 0xE0002014) -- CPU_WriteMem(4 bytes @ 0xE0002018) -- CPU_WriteMem(4 bytes @ 0xE000201C) -- CPU_WriteMem(4 bytes @ 0xE0002020) -- CPU_WriteMem(4 bytes @ 0xE0002024) -- CPU_WriteMem(4 bytes @ 0xE0001004) (0002ms, 0243ms total)
T2BD4 000:971 JLINK_IsHalted()  returns TRUE (0002ms, 0245ms total)
T2BD4 000:973 JLINK_Halt()  returns 0x00 (0000ms, 0243ms total)
T2BD4 000:973 JLINK_IsHalted()  returns TRUE (0000ms, 0243ms total)
T2BD4 000:973 JLINK_IsHalted()  returns TRUE (0000ms, 0243ms total)
T2BD4 000:973 JLINK_IsHalted()  returns TRUE (0000ms, 0243ms total)
T2BD4 000:973 JLINK_ReadReg(R15 (PC))  returns 0x08001A2C (0000ms, 0243ms total)
T2BD4 000:973 JLINK_ReadReg(XPSR)  returns 0x61000000 (0000ms, 0243ms total)
T2BD4 000:973 JLINK_ClrBPEx(BPHandle = 0x00000001)  returns 0x00 (0000ms, 0243ms total)
T2BD4 000:973 JLINK_ReadMemU32(0xE000ED30, 0x0001 Items, ...) -- CPU_ReadMem(4 bytes @ 0xE000ED30) - Data: 02 00 00 00  returns 0x01 (0000ms, 0243ms total)
T2BD4 000:973 JLINK_ReadMemU32(0xE0001028, 0x0001 Items, ...) -- CPU_ReadMem(4 bytes @ 0xE0001028) - Data: 00 00 00 00  returns 0x01 (0000ms, 0243ms total)
T2BD4 000:973 JLINK_ReadMemU32(0xE0001038, 0x0001 Items, ...) -- CPU_ReadMem(4 bytes @ 0xE0001038) - Data: 00 02 00 00  returns 0x01 (0001ms, 0244ms total)
T2BD4 000:974 JLINK_ReadMemU32(0xE0001048, 0x0001 Items, ...) -- CPU_ReadMem(4 bytes @ 0xE0001048) - Data: 00 00 00 00  returns 0x01 (0000ms, 0244ms total)
T2BD4 000:974 JLINK_ReadMemU32(0xE0001058, 0x0001 Items, ...) -- CPU_ReadMem(4 bytes @ 0xE0001058) - Data: 00 00 00 00  returns 0x01 (0000ms, 0244ms total)
T2BD4 000:974 JLINK_ReadReg(R0)  returns 0x08001A2D (0000ms, 0244ms total)
T2BD4 000:974 JLINK_ReadReg(R1)  returns 0x20000640 (0000ms, 0244ms total)
T2BD4 000:974 JLINK_ReadReg(R2)  returns 0x00000000 (0000ms, 0244ms total)
T2BD4 000:974 JLINK_ReadReg(R3)  returns 0x080018FB (0000ms, 0244ms total)
T2BD4 000:974 JLINK_ReadReg(R4)  returns 0x08001E90 (0000ms, 0244ms total)
T2BD4 000:974 JLINK_ReadReg(R5)  returns 0x08001E90 (0000ms, 0244ms total)
T2BD4 000:974 JLINK_ReadReg(R6)  returns 0x00000000 (0000ms, 0244ms total)
T2BD4 000:974 JLINK_ReadReg(R7)  returns 0x00000000 (0000ms, 0244ms total)
T2BD4 000:974 JLINK_ReadReg(R8)  returns 0x00000000 (0000ms, 0244ms total)
T2BD4 000:974 JLINK_ReadReg(R9)  returns 0x00000000 (0000ms, 0244ms total)
T2BD4 000:974 JLINK_ReadReg(R10)  returns 0x00000000 (0000ms, 0244ms total)
T2BD4 000:974 JLINK_ReadReg(R11)  returns 0x00000000 (0000ms, 0244ms total)
T2BD4 000:974 JLINK_ReadReg(R12)  returns 0x00000000 (0000ms, 0244ms total)
T2BD4 000:974 JLINK_ReadReg(R13 (SP))  returns 0x20000640 (0000ms, 0244ms total)
T2BD4 000:974 JLINK_ReadReg(R14)  returns 0x08000241 (0000ms, 0244ms total)
T2BD4 000:974 JLINK_ReadReg(R15 (PC))  returns 0x08001A2C (0000ms, 0244ms total)
T2BD4 000:974 JLINK_ReadReg(XPSR)  returns 0x61000000 (0000ms, 0244ms total)
T2BD4 000:974 JLINK_ReadReg(MSP)  returns 0x20000640 (0000ms, 0244ms total)
T2BD4 000:974 JLINK_ReadReg(PSP)  returns 0x00000000 (0000ms, 0244ms total)
T2BD4 000:974 JLINK_ReadReg(CFBP)  returns 0x00000000 (0000ms, 0244ms total)
T2BD4 000:974 JLINK_ReadReg(FPSCR)  returns 0x00000000 (0003ms, 0247ms total)
T2BD4 000:977 JLINK_ReadReg(FPS0)  returns 0x00000000 (0000ms, 0247ms total)
T2BD4 000:977 JLINK_ReadReg(FPS1)  returns 0x00000000 (0000ms, 0247ms total)
T2BD4 000:977 JLINK_ReadReg(FPS2)  returns 0x00000000 (0000ms, 0247ms total)
T2BD4 000:977 JLINK_ReadReg(FPS3)  returns 0x00000000 (0000ms, 0247ms total)
T2BD4 000:977 JLINK_ReadReg(FPS4)  returns 0x00000000 (0000ms, 0247ms total)
T2BD4 000:977 JLINK_ReadReg(FPS5)  returns 0x00000000 (0000ms, 0247ms total)
T2BD4 000:977 JLINK_ReadReg(FPS6)  returns 0x00000000 (0000ms, 0247ms total)
T2BD4 000:977 JLINK_ReadReg(FPS7)  returns 0x00000000 (0000ms, 0247ms total)
T2BD4 000:977 JLINK_ReadReg(FPS8)  returns 0x00000000 (0000ms, 0247ms total)
T2BD4 000:977 JLINK_ReadReg(FPS9)  returns 0x00000000 (0000ms, 0247ms total)
T2BD4 000:977 JLINK_ReadReg(FPS10)  returns 0x00000000 (0000ms, 0247ms total)
T2BD4 000:977 JLINK_ReadReg(FPS11)  returns 0x00000000 (0000ms, 0247ms total)
T2BD4 000:977 JLINK_ReadReg(FPS12)  returns 0x00000000 (0000ms, 0247ms total)
T2BD4 000:977 JLINK_ReadReg(FPS13)  returns 0x00000000 (0000ms, 0247ms total)
T2BD4 000:977 JLINK_ReadReg(FPS14)  returns 0x00000000 (0000ms, 0247ms total)
T2BD4 000:977 JLINK_ReadReg(FPS15)  returns 0xFFFFFFFF (0000ms, 0247ms total)
T2BD4 000:977 JLINK_ReadReg(FPS16)  returns 0x00000000 (0000ms, 0247ms total)
T2BD4 000:977 JLINK_ReadReg(FPS17)  returns 0x00000000 (0000ms, 0247ms total)
T2BD4 000:977 JLINK_ReadReg(FPS18)  returns 0x00000000 (0000ms, 0247ms total)
T2BD4 000:977 JLINK_ReadReg(FPS19)  returns 0x00000000 (0000ms, 0247ms total)
T2BD4 000:977 JLINK_ReadReg(FPS20)  returns 0x00000000 (0000ms, 0247ms total)
T2BD4 000:977 JLINK_ReadReg(FPS21)  returns 0x00000000 (0000ms, 0247ms total)
T2BD4 000:977 JLINK_ReadReg(FPS22)  returns 0x00000000 (0000ms, 0247ms total)
T2BD4 000:977 JLINK_ReadReg(FPS23)  returns 0x00000000 (0000ms, 0247ms total)
T2BD4 000:977 JLINK_ReadReg(FPS24)  returns 0x00000000 (0000ms, 0247ms total)
T2BD4 000:977 JLINK_ReadReg(FPS25)  returns 0x00000000 (0000ms, 0247ms total)
T2BD4 000:977 JLINK_ReadReg(FPS26)  returns 0x00000000 (0000ms, 0247ms total)
T2BD4 000:977 JLINK_ReadReg(FPS27)  returns 0x00000000 (0000ms, 0247ms total)
T2BD4 000:977 JLINK_ReadReg(FPS28)  returns 0x00000000 (0000ms, 0247ms total)
T2BD4 000:977 JLINK_ReadReg(FPS29)  returns 0x00000000 (0000ms, 0247ms total)
T2BD4 000:977 JLINK_ReadReg(FPS30)  returns 0x00000000 (0000ms, 0247ms total)
T2BD4 000:977 JLINK_ReadReg(FPS31)  returns 0xFFFFFFFF (0000ms, 0247ms total)
T1E64 000:979 JLINK_ReadMemU32(0xE0001004, 0x0001 Items, ...) -- CPU_ReadMem(4 bytes @ 0xE0001004) - Data: D4 18 00 00  returns 0x01 (0001ms, 0248ms total)
T1E64 000:982 JLINK_ReadMemEx(0x0800192C, 0x003C Bytes, ..., Flags = 0x02000000) -- CPU_ReadMem(128 bytes @ 0x08001900) -- Updating C cache (128 bytes @ 0x08001900) -- Read from C cache (60 bytes @ 0x0800192C) - Data: 80 30 FE F7 67 FC 27 4A 40 A8 02 F1 80 01 00 F0 ...  returns 0x3C (0002ms, 0250ms total)
T1E64 000:984 JLINK_ReadMemEx(0x08001968, 0x003C Bytes, ..., Flags = 0x02000000) -- CPU_ReadMem(64 bytes @ 0x08001980) -- Updating C cache (64 bytes @ 0x08001980) -- Read from C cache (60 bytes @ 0x08001968) - Data: 80 0C 39 46 0D F5 80 7A 0D F5 C0 7B 5F F0 00 00 ...  returns 0x3C (0000ms, 0250ms total)
T1E64 000:985 JLINK_ReadMemEx(0x080019A4, 0x003C Bytes, ..., Flags = 0x02000000) -- CPU_ReadMem(64 bytes @ 0x080019C0) -- Updating C cache (64 bytes @ 0x080019C0) -- Read from C cache (60 bytes @ 0x080019A4) - Data: 02 D0 22 F8 10 60 01 E0 22 F8 10 70 40 1C 08 28 ...  returns 0x3C (0000ms, 0250ms total)
T1E64 000:985 JLINK_ReadMemEx(0x080019E0, 0x003C Bytes, ..., Flags = 0x02000000) -- CPU_ReadMem(64 bytes @ 0x08001A00) -- Updating C cache (64 bytes @ 0x08001A00) -- Read from C cache (60 bytes @ 0x080019E0) - Data: 35 46 03 D0 09 DA 0A 2A 04 D0 06 E0 30 20 20 70 ...  returns 0x3C (0001ms, 0251ms total)
T1E64 000:986 JLINK_ReadMemEx(0x08001A1C, 0x003C Bytes, ..., Flags = 0x02000000) -- CPU_ReadMem(64 bytes @ 0x08001A40) -- Updating C cache (64 bytes @ 0x08001A40) -- Read from C cache (60 bytes @ 0x08001A1C) - Data: 60 54 49 1C 20 46 66 54 00 F0 CA F8 20 46 70 BD ...  returns 0x3C (0001ms, 0252ms total)
T2BD4 006:139 JLINK_ReadMemEx(0x08001A2C, 0x0002 Bytes, ..., Flags = 0x02000000) -- Read from C cache (2 bytes @ 0x08001A2C) - Data: 08 B5  returns 0x02 (0000ms, 0252ms total)
T2BD4 006:139 JLINK_Step() -- Read from C cache (2 bytes @ 0x08001A2C) -- CPU_ReadMem(4 bytes @ 0xE000ED18) -- CPU_WriteMem(4 bytes @ 0xE000ED18) -- CPU_ReadMem(4 bytes @ 0xE000ED18) -- CPU_WriteMem(4 bytes @ 0xE000ED18) -- CPU_WriteMem(8 bytes @ 0x20000638) -- Simulated  returns 0x00 (0002ms, 0254ms total)
T2BD4 006:141 JLINK_ReadReg(R15 (PC))  returns 0x08001A2E (0000ms, 0254ms total)
T2BD4 006:141 JLINK_ReadReg(XPSR)  returns 0x61000000 (0000ms, 0254ms total)
T2BD4 006:141 JLINK_ReadReg(R0)  returns 0x08001A2D (0000ms, 0254ms total)
T2BD4 006:141 JLINK_ReadReg(R1)  returns 0x20000640 (0000ms, 0254ms total)
T2BD4 006:141 JLINK_ReadReg(R2)  returns 0x00000000 (0000ms, 0254ms total)
T2BD4 006:141 JLINK_ReadReg(R3)  returns 0x080018FB (0000ms, 0254ms total)
T2BD4 006:141 JLINK_ReadReg(R4)  returns 0x08001E90 (0000ms, 0254ms total)
T2BD4 006:141 JLINK_ReadReg(R5)  returns 0x08001E90 (0000ms, 0254ms total)
T2BD4 006:141 JLINK_ReadReg(R6)  returns 0x00000000 (0000ms, 0254ms total)
T2BD4 006:141 JLINK_ReadReg(R7)  returns 0x00000000 (0000ms, 0254ms total)
T2BD4 006:141 JLINK_ReadReg(R8)  returns 0x00000000 (0000ms, 0254ms total)
T2BD4 006:141 JLINK_ReadReg(R9)  returns 0x00000000 (0000ms, 0254ms total)
T2BD4 006:141 JLINK_ReadReg(R10)  returns 0x00000000 (0000ms, 0254ms total)
T2BD4 006:141 JLINK_ReadReg(R11)  returns 0x00000000 (0000ms, 0254ms total)
T2BD4 006:141 JLINK_ReadReg(R12)  returns 0x00000000 (0000ms, 0254ms total)
T2BD4 006:141 JLINK_ReadReg(R13 (SP))  returns 0x20000638 (0000ms, 0254ms total)
T2BD4 006:141 JLINK_ReadReg(R14)  returns 0x08000241 (0000ms, 0254ms total)
T2BD4 006:141 JLINK_ReadReg(R15 (PC))  returns 0x08001A2E (0000ms, 0254ms total)
T2BD4 006:141 JLINK_ReadReg(XPSR)  returns 0x61000000 (0000ms, 0254ms total)
T2BD4 006:141 JLINK_ReadReg(MSP)  returns 0x20000638 (0000ms, 0254ms total)
T2BD4 006:141 JLINK_ReadReg(PSP)  returns 0x00000000 (0000ms, 0254ms total)
T2BD4 006:141 JLINK_ReadReg(CFBP)  returns 0x00000000 (0000ms, 0254ms total)
T2BD4 006:141 JLINK_ReadReg(FPSCR)  returns 0x00000000 (0000ms, 0254ms total)
T2BD4 006:141 JLINK_ReadReg(FPS0)  returns 0x00000000 (0000ms, 0254ms total)
T2BD4 006:141 JLINK_ReadReg(FPS1)  returns 0x00000000 (0000ms, 0254ms total)
T2BD4 006:141 JLINK_ReadReg(FPS2)  returns 0x00000000 (0000ms, 0254ms total)
T2BD4 006:141 JLINK_ReadReg(FPS3)  returns 0x00000000 (0000ms, 0254ms total)
T2BD4 006:141 JLINK_ReadReg(FPS4)  returns 0x00000000 (0000ms, 0254ms total)
T2BD4 006:141 JLINK_ReadReg(FPS5)  returns 0x00000000 (0000ms, 0254ms total)
T2BD4 006:141 JLINK_ReadReg(FPS6)  returns 0x00000000 (0000ms, 0254ms total)
T2BD4 006:141 JLINK_ReadReg(FPS7)  returns 0x00000000 (0000ms, 0254ms total)
T2BD4 006:141 JLINK_ReadReg(FPS8)  returns 0x00000000 (0000ms, 0254ms total)
T2BD4 006:141 JLINK_ReadReg(FPS9)  returns 0x00000000 (0000ms, 0254ms total)
T2BD4 006:141 JLINK_ReadReg(FPS10)  returns 0x00000000 (0000ms, 0254ms total)
T2BD4 006:141 JLINK_ReadReg(FPS11)  returns 0x00000000 (0000ms, 0254ms total)
T2BD4 006:141 JLINK_ReadReg(FPS12)  returns 0x00000000 (0000ms, 0254ms total)
T2BD4 006:141 JLINK_ReadReg(FPS13)  returns 0x00000000 (0000ms, 0254ms total)
T2BD4 006:141 JLINK_ReadReg(FPS14)  returns 0x00000000 (0000ms, 0254ms total)
T2BD4 006:141 JLINK_ReadReg(FPS15)  returns 0xFFFFFFFF (0000ms, 0254ms total)
T2BD4 006:141 JLINK_ReadReg(FPS16)  returns 0x00000000 (0000ms, 0254ms total)
T2BD4 006:141 JLINK_ReadReg(FPS17)  returns 0x00000000 (0000ms, 0254ms total)
T2BD4 006:141 JLINK_ReadReg(FPS18)  returns 0x00000000 (0000ms, 0254ms total)
T2BD4 006:141 JLINK_ReadReg(FPS19)  returns 0x00000000 (0000ms, 0254ms total)
T2BD4 006:141 JLINK_ReadReg(FPS20)  returns 0x00000000 (0000ms, 0254ms total)
T2BD4 006:141 JLINK_ReadReg(FPS21)  returns 0x00000000 (0000ms, 0254ms total)
T2BD4 006:141 JLINK_ReadReg(FPS22)  returns 0x00000000 (0000ms, 0254ms total)
T2BD4 006:141 JLINK_ReadReg(FPS23)  returns 0x00000000 (0000ms, 0254ms total)
T2BD4 006:141 JLINK_ReadReg(FPS24)  returns 0x00000000 (0000ms, 0254ms total)
T2BD4 006:141 JLINK_ReadReg(FPS25)  returns 0x00000000 (0000ms, 0254ms total)
T2BD4 006:141 JLINK_ReadReg(FPS26)  returns 0x00000000 (0000ms, 0254ms total)
T2BD4 006:141 JLINK_ReadReg(FPS27)  returns 0x00000000 (0000ms, 0254ms total)
T2BD4 006:141 JLINK_ReadReg(FPS28)  returns 0x00000000 (0000ms, 0254ms total)
T2BD4 006:141 JLINK_ReadReg(FPS29)  returns 0x00000000 (0000ms, 0254ms total)
T2BD4 006:141 JLINK_ReadReg(FPS30)  returns 0x00000000 (0000ms, 0254ms total)
T2BD4 006:141 JLINK_ReadReg(FPS31)  returns 0xFFFFFFFF (0000ms, 0254ms total)
T1E64 006:141 JLINK_ReadMemEx(0x2000063C, 0x0004 Bytes, ..., Flags = 0x02000000) -- CPU_ReadMem(64 bytes @ 0x20000600) -- Updating C cache (64 bytes @ 0x20000600) -- Read from C cache (4 bytes @ 0x2000063C) - Data: 41 02 00 08  returns 0x04 (0001ms, 0255ms total)
T1E64 006:142 JLINK_ReadMemU32(0xE0001004, 0x0001 Items, ...) - Data: D7 18 00 00  returns 0x01 (0000ms, 0255ms total)
T1E64 006:143 JLINK_ReadMemEx(0x08001A2C, 0x003C Bytes, ..., Flags = 0x02000000) -- Read from C cache (60 bytes @ 0x08001A2C) - Data: 08 B5 FE F7 A9 FE FF F7 FF FC 08 48 01 68 41 F0 ...  returns 0x3C (0000ms, 0255ms total)
T2BD4 007:333 JLINK_ReadMemEx(0x08001A2E, 0x0002 Bytes, ..., Flags = 0x02000000) -- Read from C cache (2 bytes @ 0x08001A2E) - Data: FE F7  returns 0x02 (0000ms, 0255ms total)
T2BD4 007:333 JLINK_SetBPEx(Addr = 0x08001A32, Type = 0xFFFFFFF2)  returns 0x00000002 (0000ms, 0255ms total)
T2BD4 007:333 JLINK_Go() -- CPU_ReadMem(4 bytes @ 0xE0001000) -- CPU_WriteMem(4 bytes @ 0xE0002008) -- CPU_WriteMem(4 bytes @ 0xE0001004) (0002ms, 0257ms total)
T2BD4 007:436 JLINK_IsHalted()  returns TRUE (0002ms, 0259ms total)
T2BD4 007:438 JLINK_Halt()  returns 0x00 (0000ms, 0257ms total)
T2BD4 007:438 JLINK_IsHalted()  returns TRUE (0000ms, 0257ms total)
T2BD4 007:438 JLINK_IsHalted()  returns TRUE (0000ms, 0257ms total)
T2BD4 007:438 JLINK_IsHalted()  returns TRUE (0000ms, 0257ms total)
T2BD4 007:438 JLINK_ReadReg(R15 (PC))  returns 0x08001A32 (0000ms, 0257ms total)
T2BD4 007:438 JLINK_ReadReg(XPSR)  returns 0x61000000 (0000ms, 0257ms total)
T2BD4 007:438 JLINK_ClrBPEx(BPHandle = 0x00000002)  returns 0x00 (0000ms, 0257ms total)
T2BD4 007:438 JLINK_ReadMemU32(0xE000ED30, 0x0001 Items, ...) -- CPU_ReadMem(4 bytes @ 0xE000ED30) - Data: 02 00 00 00  returns 0x01 (0000ms, 0257ms total)
T2BD4 007:438 JLINK_ReadMemU32(0xE0001028, 0x0001 Items, ...) -- CPU_ReadMem(4 bytes @ 0xE0001028) - Data: 00 00 00 00  returns 0x01 (0000ms, 0257ms total)
T2BD4 007:439 JLINK_ReadMemU32(0xE0001038, 0x0001 Items, ...) -- CPU_ReadMem(4 bytes @ 0xE0001038) - Data: 00 02 00 00  returns 0x01 (0000ms, 0257ms total)
T2BD4 007:439 JLINK_ReadMemU32(0xE0001048, 0x0001 Items, ...) -- CPU_ReadMem(4 bytes @ 0xE0001048) - Data: 00 00 00 00  returns 0x01 (0000ms, 0257ms total)
T2BD4 007:439 JLINK_ReadMemU32(0xE0001058, 0x0001 Items, ...) -- CPU_ReadMem(4 bytes @ 0xE0001058) - Data: 00 00 00 00  returns 0x01 (0000ms, 0257ms total)
T2BD4 007:439 JLINK_ReadReg(R0)  returns 0x00000000 (0000ms, 0257ms total)
T2BD4 007:439 JLINK_ReadReg(R1)  returns 0x00000000 (0000ms, 0257ms total)
T2BD4 007:439 JLINK_ReadReg(R2)  returns 0x00000000 (0000ms, 0257ms total)
T2BD4 007:439 JLINK_ReadReg(R3)  returns 0x00000000 (0000ms, 0257ms total)
T2BD4 007:439 JLINK_ReadReg(R4)  returns 0x08001E90 (0000ms, 0257ms total)
T2BD4 007:439 JLINK_ReadReg(R5)  returns 0x08001E90 (0000ms, 0257ms total)
T2BD4 007:439 JLINK_ReadReg(R6)  returns 0x00000000 (0000ms, 0257ms total)
T2BD4 007:439 JLINK_ReadReg(R7)  returns 0x00000000 (0000ms, 0257ms total)
T2BD4 007:439 JLINK_ReadReg(R8)  returns 0x00000000 (0000ms, 0257ms total)
T2BD4 007:439 JLINK_ReadReg(R9)  returns 0x00000000 (0000ms, 0257ms total)
T2BD4 007:439 JLINK_ReadReg(R10)  returns 0x00000000 (0000ms, 0257ms total)
T2BD4 007:440 JLINK_ReadReg(R11)  returns 0x00000000 (0000ms, 0257ms total)
T2BD4 007:440 JLINK_ReadReg(R12)  returns 0x00000000 (0000ms, 0257ms total)
T2BD4 007:440 JLINK_ReadReg(R13 (SP))  returns 0x20000638 (0000ms, 0257ms total)
T2BD4 007:440 JLINK_ReadReg(R14)  returns 0x08000797 (0000ms, 0257ms total)
T2BD4 007:440 JLINK_ReadReg(R15 (PC))  returns 0x08001A32 (0000ms, 0257ms total)
T2BD4 007:440 JLINK_ReadReg(XPSR)  returns 0x61000000 (0000ms, 0257ms total)
T2BD4 007:440 JLINK_ReadReg(MSP)  returns 0x20000638 (0000ms, 0257ms total)
T2BD4 007:440 JLINK_ReadReg(PSP)  returns 0x00000000 (0000ms, 0257ms total)
T2BD4 007:440 JLINK_ReadReg(CFBP)  returns 0x00000000 (0000ms, 0257ms total)
T2BD4 007:440 JLINK_ReadReg(FPSCR)  returns 0x00000000 (0002ms, 0259ms total)
T2BD4 007:442 JLINK_ReadReg(FPS0)  returns 0x00000000 (0000ms, 0259ms total)
T2BD4 007:442 JLINK_ReadReg(FPS1)  returns 0x00000000 (0000ms, 0259ms total)
T2BD4 007:442 JLINK_ReadReg(FPS2)  returns 0x00000000 (0000ms, 0259ms total)
T2BD4 007:442 JLINK_ReadReg(FPS3)  returns 0x00000000 (0000ms, 0259ms total)
T2BD4 007:442 JLINK_ReadReg(FPS4)  returns 0x00000000 (0000ms, 0259ms total)
T2BD4 007:442 JLINK_ReadReg(FPS5)  returns 0x00000000 (0000ms, 0259ms total)
T2BD4 007:442 JLINK_ReadReg(FPS6)  returns 0x00000000 (0000ms, 0259ms total)
T2BD4 007:442 JLINK_ReadReg(FPS7)  returns 0x00000000 (0000ms, 0259ms total)
T2BD4 007:442 JLINK_ReadReg(FPS8)  returns 0x00000000 (0000ms, 0259ms total)
T2BD4 007:442 JLINK_ReadReg(FPS9)  returns 0x00000000 (0000ms, 0259ms total)
T2BD4 007:442 JLINK_ReadReg(FPS10)  returns 0x00000000 (0000ms, 0259ms total)
T2BD4 007:442 JLINK_ReadReg(FPS11)  returns 0x00000000 (0000ms, 0259ms total)
T2BD4 007:442 JLINK_ReadReg(FPS12)  returns 0x00000000 (0000ms, 0259ms total)
T2BD4 007:442 JLINK_ReadReg(FPS13)  returns 0x00000000 (0000ms, 0259ms total)
T2BD4 007:442 JLINK_ReadReg(FPS14)  returns 0x00000000 (0000ms, 0259ms total)
T2BD4 007:442 JLINK_ReadReg(FPS15)  returns 0xFFFFFFFF (0000ms, 0259ms total)
T2BD4 007:442 JLINK_ReadReg(FPS16)  returns 0x00000000 (0000ms, 0259ms total)
T2BD4 007:442 JLINK_ReadReg(FPS17)  returns 0x00000000 (0000ms, 0259ms total)
T2BD4 007:442 JLINK_ReadReg(FPS18)  returns 0x00000000 (0000ms, 0259ms total)
T2BD4 007:442 JLINK_ReadReg(FPS19)  returns 0x00000000 (0000ms, 0259ms total)
T2BD4 007:442 JLINK_ReadReg(FPS20)  returns 0x00000000 (0000ms, 0259ms total)
T2BD4 007:442 JLINK_ReadReg(FPS21)  returns 0x00000000 (0000ms, 0259ms total)
T2BD4 007:442 JLINK_ReadReg(FPS22)  returns 0x00000000 (0000ms, 0259ms total)
T2BD4 007:442 JLINK_ReadReg(FPS23)  returns 0x00000000 (0000ms, 0259ms total)
T2BD4 007:442 JLINK_ReadReg(FPS24)  returns 0x00000000 (0000ms, 0259ms total)
T2BD4 007:442 JLINK_ReadReg(FPS25)  returns 0x00000000 (0000ms, 0259ms total)
T2BD4 007:442 JLINK_ReadReg(FPS26)  returns 0x00000000 (0000ms, 0259ms total)
T2BD4 007:442 JLINK_ReadReg(FPS27)  returns 0x00000000 (0000ms, 0259ms total)
T2BD4 007:442 JLINK_ReadReg(FPS28)  returns 0x00000000 (0000ms, 0259ms total)
T2BD4 007:442 JLINK_ReadReg(FPS29)  returns 0x00000000 (0000ms, 0259ms total)
T2BD4 007:442 JLINK_ReadReg(FPS30)  returns 0x00000000 (0000ms, 0259ms total)
T2BD4 007:442 JLINK_ReadReg(FPS31)  returns 0xFFFFFFFF (0000ms, 0259ms total)
T1E64 007:443 JLINK_ReadMemEx(0x2000063C, 0x0004 Bytes, ..., Flags = 0x02000000) -- CPU_ReadMem(64 bytes @ 0x20000600) -- Updating C cache (64 bytes @ 0x20000600) -- Read from C cache (4 bytes @ 0x2000063C) - Data: 41 02 00 08  returns 0x04 (0000ms, 0259ms total)
T1E64 007:443 JLINK_ReadMemU32(0xE0001004, 0x0001 Items, ...) -- CPU_ReadMem(4 bytes @ 0xE0001004) - Data: C1 1B 00 00  returns 0x01 (0001ms, 0260ms total)
T1E64 007:445 JLINK_ReadMemEx(0x08001A2E, 0x0002 Bytes, ..., Flags = 0x02000000) -- CPU_ReadMem(64 bytes @ 0x08001A00) -- Updating C cache (64 bytes @ 0x08001A00) -- Read from C cache (2 bytes @ 0x08001A2E) - Data: FE F7  returns 0x02 (0001ms, 0261ms total)
T1E64 007:446 JLINK_ReadMemEx(0x08001A30, 0x003C Bytes, ..., Flags = 0x02000000) -- CPU_ReadMem(64 bytes @ 0x08001A40) -- Updating C cache (64 bytes @ 0x08001A40) -- Read from C cache (60 bytes @ 0x08001A30) - Data: A9 FE FF F7 FF FC 08 48 01 68 41 F0 01 01 01 60 ...  returns 0x3C (0001ms, 0262ms total)
T2BD4 008:095 JLINK_ReadMemEx(0x08001A32, 0x0002 Bytes, ..., Flags = 0x02000000) -- Read from C cache (2 bytes @ 0x08001A32) - Data: FF F7  returns 0x02 (0000ms, 0262ms total)
T2BD4 008:095 JLINK_SetBPEx(Addr = 0x08001A36, Type = 0xFFFFFFF2)  returns 0x00000003 (0000ms, 0262ms total)
T2BD4 008:095 JLINK_Go() -- CPU_ReadMem(4 bytes @ 0xE0001000) -- CPU_WriteMem(4 bytes @ 0xE0002008) (0002ms, 0264ms total)
T2BD4 008:198 JLINK_IsHalted()  returns TRUE (0002ms, 0266ms total)
T2BD4 008:200 JLINK_Halt()  returns 0x00 (0000ms, 0264ms total)
T2BD4 008:200 JLINK_IsHalted()  returns TRUE (0000ms, 0264ms total)
T2BD4 008:200 JLINK_IsHalted()  returns TRUE (0000ms, 0264ms total)
T2BD4 008:200 JLINK_IsHalted()  returns TRUE (0000ms, 0264ms total)
T2BD4 008:200 JLINK_ReadReg(R15 (PC))  returns 0x08001A36 (0000ms, 0264ms total)
T2BD4 008:200 JLINK_ReadReg(XPSR)  returns 0xA1000000 (0000ms, 0264ms total)
T2BD4 008:200 JLINK_ClrBPEx(BPHandle = 0x00000003)  returns 0x00 (0000ms, 0264ms total)
T2BD4 008:200 JLINK_ReadMemU32(0xE000ED30, 0x0001 Items, ...) -- CPU_ReadMem(4 bytes @ 0xE000ED30) - Data: 02 00 00 00  returns 0x01 (0000ms, 0264ms total)
T2BD4 008:200 JLINK_ReadMemU32(0xE0001028, 0x0001 Items, ...) -- CPU_ReadMem(4 bytes @ 0xE0001028) - Data: 00 00 00 00  returns 0x01 (0000ms, 0264ms total)
T2BD4 008:200 JLINK_ReadMemU32(0xE0001038, 0x0001 Items, ...) -- CPU_ReadMem(4 bytes @ 0xE0001038) - Data: 00 02 00 00  returns 0x01 (0001ms, 0265ms total)
T2BD4 008:201 JLINK_ReadMemU32(0xE0001048, 0x0001 Items, ...) -- CPU_ReadMem(4 bytes @ 0xE0001048) - Data: 00 00 00 00  returns 0x01 (0000ms, 0265ms total)
T2BD4 008:201 JLINK_ReadMemU32(0xE0001058, 0x0001 Items, ...) -- CPU_ReadMem(4 bytes @ 0xE0001058) - Data: 00 00 00 00  returns 0x01 (0000ms, 0265ms total)
T2BD4 008:201 JLINK_SetBPEx(Addr = 0x08001A48, Type = 0xFFFFFFF2)  returns 0x00000004 (0000ms, 0265ms total)
T2BD4 008:201 JLINK_Go() -- CPU_ReadMem(4 bytes @ 0xE0001000) -- CPU_WriteMem(4 bytes @ 0xE0002008) (0002ms, 0267ms total)
T2BD4 008:304 JLINK_IsHalted()  returns TRUE (0001ms, 0268ms total)
T2BD4 008:305 JLINK_Halt()  returns 0x00 (0000ms, 0267ms total)
T2BD4 008:305 JLINK_IsHalted()  returns TRUE (0000ms, 0267ms total)
T2BD4 008:305 JLINK_IsHalted()  returns TRUE (0000ms, 0267ms total)
T2BD4 008:305 JLINK_IsHalted()  returns TRUE (0000ms, 0267ms total)
T2BD4 008:305 JLINK_ReadReg(R15 (PC))  returns 0x08001A48 (0000ms, 0267ms total)
T2BD4 008:305 JLINK_ReadReg(XPSR)  returns 0xA1000000 (0000ms, 0267ms total)
T2BD4 008:305 JLINK_ClrBPEx(BPHandle = 0x00000004)  returns 0x00 (0000ms, 0267ms total)
T2BD4 008:305 JLINK_ReadMemU32(0xE000ED30, 0x0001 Items, ...) -- CPU_ReadMem(4 bytes @ 0xE000ED30) - Data: 02 00 00 00  returns 0x01 (0001ms, 0268ms total)
T2BD4 008:306 JLINK_ReadMemU32(0xE0001028, 0x0001 Items, ...) -- CPU_ReadMem(4 bytes @ 0xE0001028) - Data: 00 00 00 00  returns 0x01 (0000ms, 0268ms total)
T2BD4 008:306 JLINK_ReadMemU32(0xE0001038, 0x0001 Items, ...) -- CPU_ReadMem(4 bytes @ 0xE0001038) - Data: 00 02 00 00  returns 0x01 (0000ms, 0268ms total)
T2BD4 008:306 JLINK_ReadMemU32(0xE0001048, 0x0001 Items, ...) -- CPU_ReadMem(4 bytes @ 0xE0001048) - Data: 00 00 00 00  returns 0x01 (0001ms, 0269ms total)
T2BD4 008:307 JLINK_ReadMemU32(0xE0001058, 0x0001 Items, ...) -- CPU_ReadMem(4 bytes @ 0xE0001058) - Data: 00 00 00 00  returns 0x01 (0000ms, 0269ms total)
T2BD4 008:307 JLINK_ReadMemEx(0x08001A46, 0x0002 Bytes, ..., Flags = 0x02000000) -- CPU_ReadMem(64 bytes @ 0x08001A40) -- Updating C cache (64 bytes @ 0x08001A40) -- Read from C cache (2 bytes @ 0x08001A46) - Data: 00 90  returns 0x02 (0001ms, 0270ms total)
T2BD4 008:308 JLINK_ReadMemEx(0x08001A48, 0x003C Bytes, ..., Flags = 0x02000000) -- CPU_ReadMem(64 bytes @ 0x08001A80) -- Updating C cache (64 bytes @ 0x08001A80) -- Read from C cache (60 bytes @ 0x08001A48) - Data: FF F7 BC FC FF F7 92 FC 00 F0 2C F8 FC E7 00 00 ...  returns 0x3C (0001ms, 0271ms total)
T2BD4 008:309 JLINK_ReadMemEx(0x08001A48, 0x0002 Bytes, ..., Flags = 0x02000000) -- Read from C cache (2 bytes @ 0x08001A48) - Data: FF F7  returns 0x02 (0000ms, 0271ms total)
T2BD4 008:309 JLINK_ReadMemEx(0x08001A48, 0x003C Bytes, ..., Flags = 0x02000000) -- Read from C cache (60 bytes @ 0x08001A48) - Data: FF F7 BC FC FF F7 92 FC 00 F0 2C F8 FC E7 00 00 ...  returns 0x3C (0000ms, 0271ms total)
T2BD4 008:309 JLINK_ReadMemEx(0x08001A48, 0x0002 Bytes, ..., Flags = 0x02000000) -- Read from C cache (2 bytes @ 0x08001A48) - Data: FF F7  returns 0x02 (0000ms, 0271ms total)
T2BD4 008:309 JLINK_ReadMemEx(0x08001A4A, 0x0002 Bytes, ..., Flags = 0x02000000) -- Read from C cache (2 bytes @ 0x08001A4A) - Data: BC FC  returns 0x02 (0000ms, 0271ms total)
T2BD4 008:309 JLINK_SetBPEx(Addr = 0x08001A4C, Type = 0xFFFFFFF2)  returns 0x00000005 (0000ms, 0271ms total)
T2BD4 008:309 JLINK_Go() -- CPU_ReadMem(4 bytes @ 0xE0001000) -- CPU_WriteMem(4 bytes @ 0xE0002008) (0001ms, 0272ms total)
T2BD4 008:410 JLINK_IsHalted()  returns TRUE (0002ms, 0274ms total)
T2BD4 008:412 JLINK_Halt()  returns 0x00 (0000ms, 0272ms total)
T2BD4 008:412 JLINK_IsHalted()  returns TRUE (0000ms, 0272ms total)
T2BD4 008:412 JLINK_IsHalted()  returns TRUE (0000ms, 0272ms total)
T2BD4 008:412 JLINK_IsHalted()  returns TRUE (0000ms, 0272ms total)
T2BD4 008:412 JLINK_ReadReg(R15 (PC))  returns 0x08001A4C (0000ms, 0272ms total)
T2BD4 008:412 JLINK_ReadReg(XPSR)  returns 0x61000000 (0000ms, 0272ms total)
T2BD4 008:412 JLINK_ClrBPEx(BPHandle = 0x00000005)  returns 0x00 (0000ms, 0272ms total)
T2BD4 008:412 JLINK_ReadMemU32(0xE000ED30, 0x0001 Items, ...) -- CPU_ReadMem(4 bytes @ 0xE000ED30) - Data: 02 00 00 00  returns 0x01 (0000ms, 0272ms total)
T2BD4 008:412 JLINK_ReadMemU32(0xE0001028, 0x0001 Items, ...) -- CPU_ReadMem(4 bytes @ 0xE0001028) - Data: 00 00 00 00  returns 0x01 (0000ms, 0272ms total)
T2BD4 008:412 JLINK_ReadMemU32(0xE0001038, 0x0001 Items, ...) -- CPU_ReadMem(4 bytes @ 0xE0001038) - Data: 00 02 00 00  returns 0x01 (0001ms, 0273ms total)
T2BD4 008:413 JLINK_ReadMemU32(0xE0001048, 0x0001 Items, ...) -- CPU_ReadMem(4 bytes @ 0xE0001048) - Data: 00 00 00 00  returns 0x01 (0000ms, 0273ms total)
T2BD4 008:413 JLINK_ReadMemU32(0xE0001058, 0x0001 Items, ...) -- CPU_ReadMem(4 bytes @ 0xE0001058) - Data: 00 00 00 00  returns 0x01 (0001ms, 0274ms total)
T2BD4 008:414 JLINK_ReadReg(R0)  returns 0x00000000 (0000ms, 0274ms total)
T2BD4 008:414 JLINK_ReadReg(R1)  returns 0x00200000 (0000ms, 0274ms total)
T2BD4 008:414 JLINK_ReadReg(R2)  returns 0x00000000 (0000ms, 0274ms total)
T2BD4 008:414 JLINK_ReadReg(R3)  returns 0x01FFFFFF (0000ms, 0274ms total)
T2BD4 008:414 JLINK_ReadReg(R4)  returns 0x08001E90 (0000ms, 0274ms total)
T2BD4 008:414 JLINK_ReadReg(R5)  returns 0x08001E90 (0000ms, 0274ms total)
T2BD4 008:414 JLINK_ReadReg(R6)  returns 0x00000000 (0000ms, 0274ms total)
T2BD4 008:414 JLINK_ReadReg(R7)  returns 0x00000000 (0000ms, 0274ms total)
T2BD4 008:414 JLINK_ReadReg(R8)  returns 0x00000000 (0000ms, 0274ms total)
T2BD4 008:414 JLINK_ReadReg(R9)  returns 0x00000000 (0000ms, 0274ms total)
T2BD4 008:414 JLINK_ReadReg(R10)  returns 0x00000000 (0000ms, 0274ms total)
T2BD4 008:414 JLINK_ReadReg(R11)  returns 0x00000000 (0000ms, 0274ms total)
T2BD4 008:414 JLINK_ReadReg(R12)  returns 0x00000000 (0000ms, 0274ms total)
T2BD4 008:414 JLINK_ReadReg(R13 (SP))  returns 0x20000638 (0000ms, 0274ms total)
T2BD4 008:414 JLINK_ReadReg(R14)  returns 0x08001615 (0000ms, 0274ms total)
T2BD4 008:414 JLINK_ReadReg(R15 (PC))  returns 0x08001A4C (0000ms, 0274ms total)
T2BD4 008:414 JLINK_ReadReg(XPSR)  returns 0x61000000 (0000ms, 0274ms total)
T2BD4 008:414 JLINK_ReadReg(MSP)  returns 0x20000638 (0000ms, 0274ms total)
T2BD4 008:414 JLINK_ReadReg(PSP)  returns 0x00000000 (0000ms, 0274ms total)
T2BD4 008:414 JLINK_ReadReg(CFBP)  returns 0x00000000 (0000ms, 0274ms total)
T2BD4 008:414 JLINK_ReadReg(FPSCR)  returns 0x00000000 (0002ms, 0276ms total)
T2BD4 008:417 JLINK_ReadReg(FPS0)  returns 0x00000000 (0000ms, 0276ms total)
T2BD4 008:417 JLINK_ReadReg(FPS1)  returns 0x00000000 (0000ms, 0276ms total)
T2BD4 008:417 JLINK_ReadReg(FPS2)  returns 0x00000000 (0000ms, 0276ms total)
T2BD4 008:417 JLINK_ReadReg(FPS3)  returns 0x00000000 (0000ms, 0276ms total)
T2BD4 008:417 JLINK_ReadReg(FPS4)  returns 0x00000000 (0000ms, 0276ms total)
T2BD4 008:417 JLINK_ReadReg(FPS5)  returns 0x00000000 (0000ms, 0276ms total)
T2BD4 008:417 JLINK_ReadReg(FPS6)  returns 0x00000000 (0000ms, 0276ms total)
T2BD4 008:417 JLINK_ReadReg(FPS7)  returns 0x00000000 (0000ms, 0276ms total)
T2BD4 008:417 JLINK_ReadReg(FPS8)  returns 0x00000000 (0000ms, 0276ms total)
T2BD4 008:417 JLINK_ReadReg(FPS9)  returns 0x00000000 (0000ms, 0276ms total)
T2BD4 008:417 JLINK_ReadReg(FPS10)  returns 0x00000000 (0000ms, 0276ms total)
T2BD4 008:417 JLINK_ReadReg(FPS11)  returns 0x00000000 (0000ms, 0276ms total)
T2BD4 008:417 JLINK_ReadReg(FPS12)  returns 0x00000000 (0000ms, 0276ms total)
T2BD4 008:417 JLINK_ReadReg(FPS13)  returns 0x00000000 (0000ms, 0276ms total)
T2BD4 008:417 JLINK_ReadReg(FPS14)  returns 0x00000000 (0000ms, 0276ms total)
T2BD4 008:417 JLINK_ReadReg(FPS15)  returns 0xFFFFFFFF (0000ms, 0276ms total)
T2BD4 008:417 JLINK_ReadReg(FPS16)  returns 0x00000000 (0000ms, 0276ms total)
T2BD4 008:417 JLINK_ReadReg(FPS17)  returns 0x00000000 (0000ms, 0276ms total)
T2BD4 008:417 JLINK_ReadReg(FPS18)  returns 0x00000000 (0000ms, 0276ms total)
T2BD4 008:417 JLINK_ReadReg(FPS19)  returns 0x00000000 (0000ms, 0276ms total)
T2BD4 008:417 JLINK_ReadReg(FPS20)  returns 0x00000000 (0000ms, 0276ms total)
T2BD4 008:417 JLINK_ReadReg(FPS21)  returns 0x00000000 (0000ms, 0276ms total)
T2BD4 008:417 JLINK_ReadReg(FPS22)  returns 0x00000000 (0000ms, 0276ms total)
T2BD4 008:417 JLINK_ReadReg(FPS23)  returns 0x00000000 (0000ms, 0276ms total)
T2BD4 008:417 JLINK_ReadReg(FPS24)  returns 0x00000000 (0000ms, 0276ms total)
T2BD4 008:417 JLINK_ReadReg(FPS25)  returns 0x00000000 (0000ms, 0276ms total)
T2BD4 008:417 JLINK_ReadReg(FPS26)  returns 0x00000000 (0000ms, 0276ms total)
T2BD4 008:417 JLINK_ReadReg(FPS27)  returns 0x00000000 (0000ms, 0276ms total)
T2BD4 008:417 JLINK_ReadReg(FPS28)  returns 0x00000000 (0000ms, 0276ms total)
T2BD4 008:417 JLINK_ReadReg(FPS29)  returns 0x00000000 (0000ms, 0276ms total)
T2BD4 008:417 JLINK_ReadReg(FPS30)  returns 0x00000000 (0000ms, 0276ms total)
T2BD4 008:417 JLINK_ReadReg(FPS31)  returns 0xFFFFFFFF (0000ms, 0276ms total)
T1E64 008:417 JLINK_ReadMemEx(0x2000063C, 0x0004 Bytes, ..., Flags = 0x02000000) -- CPU_ReadMem(64 bytes @ 0x20000600) -- Updating C cache (64 bytes @ 0x20000600) -- Read from C cache (4 bytes @ 0x2000063C) - Data: 41 02 00 08  returns 0x04 (0001ms, 0277ms total)
T1E64 008:418 JLINK_ReadMemU32(0xE0001004, 0x0001 Items, ...) -- CPU_ReadMem(4 bytes @ 0xE0001004) - Data: AF 26 00 00  returns 0x01 (0000ms, 0277ms total)
T1E64 008:420 JLINK_ReadMemEx(0x08001A46, 0x0002 Bytes, ..., Flags = 0x02000000) -- CPU_ReadMem(64 bytes @ 0x08001A40) -- Updating C cache (64 bytes @ 0x08001A40) -- Read from C cache (2 bytes @ 0x08001A46) - Data: 00 90  returns 0x02 (0001ms, 0278ms total)
T1E64 008:421 JLINK_ReadMemEx(0x08001A48, 0x003C Bytes, ..., Flags = 0x02000000) -- CPU_ReadMem(64 bytes @ 0x08001A80) -- Updating C cache (64 bytes @ 0x08001A80) -- Read from C cache (60 bytes @ 0x08001A48) - Data: FF F7 BC FC FF F7 92 FC 00 F0 2C F8 FC E7 00 00 ...  returns 0x3C (0000ms, 0278ms total)
T2BD4 010:589 JLINK_ReadMemEx(0x08001A4C, 0x0002 Bytes, ..., Flags = 0x02000000) -- Read from C cache (2 bytes @ 0x08001A4C) - Data: FF F7  returns 0x02 (0000ms, 0278ms total)
T2BD4 010:589 JLINK_Step() -- Read from C cache (2 bytes @ 0x08001A4C) -- Read from C cache (2 bytes @ 0x08001A4E) -- Simulated  returns 0x00 (0000ms, 0278ms total)
T2BD4 010:589 JLINK_ReadReg(R15 (PC))  returns 0x08001374 (0000ms, 0278ms total)
T2BD4 010:589 JLINK_ReadReg(XPSR)  returns 0x61000000 (0000ms, 0278ms total)
T2BD4 010:589 JLINK_ReadReg(R0)  returns 0x00000000 (0000ms, 0278ms total)
T2BD4 010:589 JLINK_ReadReg(R1)  returns 0x00200000 (0000ms, 0278ms total)
T2BD4 010:589 JLINK_ReadReg(R2)  returns 0x00000000 (0000ms, 0278ms total)
T2BD4 010:589 JLINK_ReadReg(R3)  returns 0x01FFFFFF (0000ms, 0278ms total)
T2BD4 010:589 JLINK_ReadReg(R4)  returns 0x08001E90 (0000ms, 0278ms total)
T2BD4 010:589 JLINK_ReadReg(R5)  returns 0x08001E90 (0000ms, 0278ms total)
T2BD4 010:589 JLINK_ReadReg(R6)  returns 0x00000000 (0000ms, 0278ms total)
T2BD4 010:589 JLINK_ReadReg(R7)  returns 0x00000000 (0000ms, 0278ms total)
T2BD4 010:589 JLINK_ReadReg(R8)  returns 0x00000000 (0000ms, 0278ms total)
T2BD4 010:589 JLINK_ReadReg(R9)  returns 0x00000000 (0000ms, 0278ms total)
T2BD4 010:589 JLINK_ReadReg(R10)  returns 0x00000000 (0000ms, 0278ms total)
T2BD4 010:589 JLINK_ReadReg(R11)  returns 0x00000000 (0000ms, 0278ms total)
T2BD4 010:589 JLINK_ReadReg(R12)  returns 0x00000000 (0000ms, 0278ms total)
T2BD4 010:589 JLINK_ReadReg(R13 (SP))  returns 0x20000638 (0000ms, 0278ms total)
T2BD4 010:589 JLINK_ReadReg(R14)  returns 0x08001A51 (0000ms, 0278ms total)
T2BD4 010:589 JLINK_ReadReg(R15 (PC))  returns 0x08001374 (0000ms, 0278ms total)
T2BD4 010:589 JLINK_ReadReg(XPSR)  returns 0x61000000 (0000ms, 0278ms total)
T2BD4 010:589 JLINK_ReadReg(MSP)  returns 0x20000638 (0000ms, 0278ms total)
T2BD4 010:589 JLINK_ReadReg(PSP)  returns 0x00000000 (0000ms, 0278ms total)
T2BD4 010:589 JLINK_ReadReg(CFBP)  returns 0x00000000 (0000ms, 0278ms total)
T2BD4 010:589 JLINK_ReadReg(FPSCR)  returns 0x00000000 (0000ms, 0278ms total)
T2BD4 010:589 JLINK_ReadReg(FPS0)  returns 0x00000000 (0000ms, 0278ms total)
T2BD4 010:589 JLINK_ReadReg(FPS1)  returns 0x00000000 (0000ms, 0278ms total)
T2BD4 010:589 JLINK_ReadReg(FPS2)  returns 0x00000000 (0000ms, 0278ms total)
T2BD4 010:589 JLINK_ReadReg(FPS3)  returns 0x00000000 (0000ms, 0278ms total)
T2BD4 010:589 JLINK_ReadReg(FPS4)  returns 0x00000000 (0000ms, 0278ms total)
T2BD4 010:589 JLINK_ReadReg(FPS5)  returns 0x00000000 (0000ms, 0278ms total)
T2BD4 010:589 JLINK_ReadReg(FPS6)  returns 0x00000000 (0000ms, 0278ms total)
T2BD4 010:589 JLINK_ReadReg(FPS7)  returns 0x00000000 (0000ms, 0278ms total)
T2BD4 010:589 JLINK_ReadReg(FPS8)  returns 0x00000000 (0000ms, 0278ms total)
T2BD4 010:589 JLINK_ReadReg(FPS9)  returns 0x00000000 (0000ms, 0278ms total)
T2BD4 010:589 JLINK_ReadReg(FPS10)  returns 0x00000000 (0000ms, 0278ms total)
T2BD4 010:589 JLINK_ReadReg(FPS11)  returns 0x00000000 (0000ms, 0278ms total)
T2BD4 010:589 JLINK_ReadReg(FPS12)  returns 0x00000000 (0000ms, 0278ms total)
T2BD4 010:589 JLINK_ReadReg(FPS13)  returns 0x00000000 (0000ms, 0278ms total)
T2BD4 010:589 JLINK_ReadReg(FPS14)  returns 0x00000000 (0000ms, 0278ms total)
T2BD4 010:589 JLINK_ReadReg(FPS15)  returns 0xFFFFFFFF (0000ms, 0278ms total)
T2BD4 010:589 JLINK_ReadReg(FPS16)  returns 0x00000000 (0000ms, 0278ms total)
T2BD4 010:589 JLINK_ReadReg(FPS17)  returns 0x00000000 (0000ms, 0278ms total)
T2BD4 010:589 JLINK_ReadReg(FPS18)  returns 0x00000000 (0000ms, 0278ms total)
T2BD4 010:589 JLINK_ReadReg(FPS19)  returns 0x00000000 (0000ms, 0278ms total)
T2BD4 010:589 JLINK_ReadReg(FPS20)  returns 0x00000000 (0000ms, 0278ms total)
T2BD4 010:589 JLINK_ReadReg(FPS21)  returns 0x00000000 (0000ms, 0278ms total)
T2BD4 010:589 JLINK_ReadReg(FPS22)  returns 0x00000000 (0000ms, 0278ms total)
T2BD4 010:589 JLINK_ReadReg(FPS23)  returns 0x00000000 (0000ms, 0278ms total)
T2BD4 010:589 JLINK_ReadReg(FPS24)  returns 0x00000000 (0000ms, 0278ms total)
T2BD4 010:589 JLINK_ReadReg(FPS25)  returns 0x00000000 (0000ms, 0278ms total)
T2BD4 010:589 JLINK_ReadReg(FPS26)  returns 0x00000000 (0000ms, 0278ms total)
T2BD4 010:589 JLINK_ReadReg(FPS27)  returns 0x00000000 (0000ms, 0278ms total)
T2BD4 010:589 JLINK_ReadReg(FPS28)  returns 0x00000000 (0000ms, 0278ms total)
T2BD4 010:589 JLINK_ReadReg(FPS29)  returns 0x00000000 (0000ms, 0278ms total)
T2BD4 010:589 JLINK_ReadReg(FPS30)  returns 0x00000000 (0000ms, 0278ms total)
T2BD4 010:589 JLINK_ReadReg(FPS31)  returns 0xFFFFFFFF (0000ms, 0278ms total)
T1E64 010:590 JLINK_ReadMemEx(0x2000063C, 0x0004 Bytes, ..., Flags = 0x02000000) -- Read from C cache (4 bytes @ 0x2000063C) - Data: 41 02 00 08  returns 0x04 (0000ms, 0278ms total)
T1E64 010:591 JLINK_ReadMemU32(0xE0001004, 0x0001 Items, ...) - Data: B0 26 00 00  returns 0x01 (0000ms, 0278ms total)
T1E64 010:595 JLINK_ReadMemEx(0x08001274, 0x003C Bytes, ..., Flags = 0x02000000) -- CPU_ReadMem(128 bytes @ 0x08001240) -- Updating C cache (128 bytes @ 0x08001240) -- Read from C cache (60 bytes @ 0x08001274) - Data: 04 28 4F F0 E0 20 01 69 03 D0 21 F0 04 01 01 61 ...  returns 0x3C (0001ms, 0279ms total)
T1E64 010:596 JLINK_ReadMemEx(0x080012B0, 0x003C Bytes, ..., Flags = 0x02000000) -- CPU_ReadMem(64 bytes @ 0x080012C0) -- Updating C cache (64 bytes @ 0x080012C0) -- Read from C cache (60 bytes @ 0x080012B0) - Data: 21 61 10 BD 10 B5 FF F7 E9 FF 10 BD 10 B5 04 00 ...  returns 0x3C (0001ms, 0280ms total)
T1E64 010:597 JLINK_ReadMemEx(0x080012EC, 0x003C Bytes, ..., Flags = 0x02000000) -- CPU_ReadMem(64 bytes @ 0x08001300) -- Updating C cache (64 bytes @ 0x08001300) -- Read from C cache (60 bytes @ 0x080012EC) - Data: 00 F0 9E F9 01 28 EB D0 60 6A 10 B1 20 46 00 F0 ...  returns 0x3C (0001ms, 0281ms total)
T1E64 010:598 JLINK_ReadMemEx(0x08001328, 0x003C Bytes, ..., Flags = 0x02000000) -- CPU_ReadMem(64 bytes @ 0x08001340) -- Updating C cache (64 bytes @ 0x08001340) -- Read from C cache (60 bytes @ 0x08001328) - Data: 10 B5 00 68 86 B0 0D 49 88 42 14 D1 0C 48 01 68 ...  returns 0x3C (0000ms, 0281ms total)
T1E64 010:598 JLINK_ReadMemEx(0x08001370, 0x003C Bytes, ..., Flags = 0x02000000) -- CPU_ReadMem(64 bytes @ 0x08001380) -- Updating C cache (64 bytes @ 0x08001380) -- Read from C cache (60 bytes @ 0x08001370) - Data: FE E7 00 00 7F B5 11 48 00 24 0F 49 01 25 01 60 ...  returns 0x3C (0001ms, 0282ms total)
T2BD4 012:641 JLINK_ReadMemEx(0x08001374, 0x0002 Bytes, ..., Flags = 0x02000000) -- Read from C cache (2 bytes @ 0x08001374) - Data: 7F B5  returns 0x02 (0000ms, 0282ms total)
T2BD4 012:641 JLINK_Step() -- Read from C cache (2 bytes @ 0x08001374) -- CPU_WriteMem(32 bytes @ 0x20000618) -- Simulated  returns 0x00 (0001ms, 0283ms total)
T2BD4 012:642 JLINK_ReadReg(R15 (PC))  returns 0x08001376 (0000ms, 0283ms total)
